! www.PolarInstruments.com
! File Export V10.11 [9.03]
! For hxji@mail.xidian.edu.cn;QQ=47399897
! File : D:\SJTU\Bachelor\thesis\ncmmw2020\Code\data\SI\d20200101.s4p
! Polar  PCB Transmission Line Field Solver  v11.04.00
# MHz S DB R 50.00
!
! Line Length = 0.018m ( 0.71 inch )
!
!
!	           PORT NUMBERING (Classic style)
!	    PORT#                               PORT#
!	    Z1 = Z2 = 50.00                     Z3 = Z4 = 50.00
!	           --------------------------
!	          |                          |
!	      1 --|                          |-- 3
!	          |                          |
!	      2 --|                          |-- 4
!	          |                          |
!	           --------------------------
!
!
!
! FREQ MHz                S11                       S12                       S13                       S14
!                         S21                       S22                       S23                       S24
!                         S31                       S32                       S33                       S34
!                         S41                       S42                       S43                       S44
!                  DB           ANG          DB           ANG          DB           ANG          DB           ANG
1000.000000      -41.678739    -157.918   -20.471436      43.554    -0.170186     -45.869   -54.147471     -17.710
                -20.471436      43.554   -41.678739    -157.918   -54.147471     -17.710    -0.170186     -45.869
                 -0.170186     -45.869   -54.147471     -17.710   -41.678739    -157.918   -20.471436      43.554
                -54.147471     -17.710    -0.170186     -45.869   -20.471436      43.554   -41.678739    -157.918

1073.333333      -41.039936    -161.758   -20.014885      40.263    -0.182012     -49.201   -53.687315     -23.353
                -20.014885      40.263   -41.039936    -161.758   -53.687315     -23.353    -0.182012     -49.201
                 -0.182012     -49.201   -53.687315     -23.353   -41.039936    -161.758   -20.014885      40.263
                -53.687315     -23.353    -0.182012     -49.201   -20.014885      40.263   -41.039936    -161.758

1146.666667      -40.474903    -165.510   -19.610160      36.978    -0.193668     -52.529   -53.283784     -28.988
                -19.610160      36.978   -40.474903    -165.510   -53.283784     -28.988    -0.193668     -52.529
                 -0.193668     -52.529   -53.283784     -28.988   -40.474903    -165.510   -19.610160      36.978
                -53.283784     -28.988    -0.193668     -52.529   -19.610160      36.978   -40.474903    -165.510

1220.000000      -39.974916    -169.190   -19.252433      33.699    -0.205101     -55.854   -52.931600     -34.612
                -19.252433      33.699   -39.974916    -169.190   -52.931600     -34.612    -0.205101     -55.854
                 -0.205101     -55.854   -52.931600     -34.612   -39.974916    -169.190   -19.252433      33.699
                -52.931600     -34.612    -0.205101     -55.854   -19.252433      33.699   -39.974916    -169.190

1293.333333      -39.533008    -172.808   -18.937786      30.426    -0.216263     -59.175   -52.626483     -40.219
                -18.937786      30.426   -39.533008    -172.808   -52.626483     -40.219    -0.216263     -59.175
                 -0.216263     -59.175   -52.626483     -40.219   -39.533008    -172.808   -18.937786      30.426
                -52.626483     -40.219    -0.216263     -59.175   -18.937786      30.426   -39.533008    -172.808

1366.666667      -39.143557    -176.374   -18.663021      27.158    -0.227106     -62.493   -52.364939     -45.807
                -18.663021      27.158   -39.143557    -176.374   -52.364939     -45.807    -0.227106     -62.493
                 -0.227106     -62.493   -52.364939     -45.807   -39.143557    -176.374   -18.663021      27.158
                -52.364939     -45.807    -0.227106     -62.493   -18.663021      27.158   -39.143557    -176.374

1440.000000      -38.801986    -179.895   -18.425523      23.896    -0.237586     -65.808   -52.144108     -51.369
                -18.425523      23.896   -38.801986    -179.895   -52.144108     -51.369    -0.237586     -65.808
                 -0.237586     -65.808   -52.144108     -51.369   -38.801986    -179.895   -18.425523      23.896
                -52.144108     -51.369    -0.237586     -65.808   -18.425523      23.896   -38.801986    -179.895

1513.333333      -38.504558     176.624   -18.223149      20.639    -0.247663     -69.121   -51.961647     -56.904
                -18.223149      20.639   -38.504558     176.624   -51.961647     -56.904    -0.247663     -69.121
                 -0.247663     -69.121   -51.961647     -56.904   -38.504558     176.624   -18.223149      20.639
                -51.961647     -56.904    -0.247663     -69.121   -18.223149      20.639   -38.504558     176.624

1586.666667      -38.248214     173.179   -18.054158      17.388    -0.257299     -72.431   -51.815646     -62.405
                -18.054158      17.388   -38.248214     173.179   -51.815646     -62.405    -0.257299     -72.431
                 -0.257299     -72.431   -51.815646     -62.405   -38.248214     173.179   -18.054158      17.388
                -51.815646     -62.405    -0.257299     -72.431   -18.054158      17.388   -38.248214     173.179

1660.000000      -38.030458     169.764   -17.917146      14.142    -0.266465     -75.739   -51.704557     -67.869
                -17.917146      14.142   -38.030458     169.764   -51.704557     -67.869    -0.266465     -75.739
                 -0.266465     -75.739   -51.704557     -67.869   -38.030458     169.764   -17.917146      14.142
                -51.704557     -67.869    -0.266465     -75.739   -17.917146      14.142   -38.030458     169.764

1733.333333      -37.849270     166.377   -17.811007      10.902    -0.275133     -79.045   -51.627144     -73.291
                -17.811007      10.902   -37.849270     166.377   -51.627144     -73.291    -0.275133     -79.045
                 -0.275133     -79.045   -51.627144     -73.291   -37.849270     166.377   -17.811007      10.902
                -51.627144     -73.291    -0.275133     -79.045   -17.811007      10.902   -37.849270     166.377

1806.666667      -37.703043     163.014   -17.734896       7.666    -0.283284     -82.350   -51.582443     -78.664
                -17.734896       7.666   -37.703043     163.014   -51.582443     -78.664    -0.283284     -82.350
                 -0.283284     -82.350   -51.582443     -78.664   -37.703043     163.014   -17.734896       7.666
                -51.582443     -78.664    -0.283284     -82.350   -17.734896       7.666   -37.703043     163.014

1880.000000      -37.590529     159.673   -17.688207       4.436    -0.290905     -85.654   -51.569728     -83.984
                -17.688207       4.436   -37.590529     159.673   -51.569728     -83.984    -0.290905     -85.654
                 -0.290905     -85.654   -51.569728     -83.984   -37.590529     159.673   -17.688207       4.436
                -51.569728     -83.984    -0.290905     -85.654   -17.688207       4.436   -37.590529     159.673

1953.333333      -37.510808     156.352   -17.670555       1.212    -0.297987     -88.957   -51.588484     -89.243
                -17.670555       1.212   -37.510808     156.352   -51.588484     -89.243    -0.297987     -88.957
                 -0.297987     -88.957   -51.588484     -89.243   -37.510808     156.352   -17.670555       1.212
                -51.588484     -89.243    -0.297987     -88.957   -17.670555       1.212   -37.510808     156.352

2026.666667      -37.463260     153.048   -17.681766      -2.008    -0.304529     -92.260   -51.638379     -94.432
                -17.681766      -2.008   -37.463260     153.048   -51.638379     -94.432    -0.304529     -92.260
                 -0.304529     -92.260   -51.638379     -94.432   -37.463260     153.048   -17.681766      -2.008
                -51.638379     -94.432    -0.304529     -92.260   -17.681766      -2.008   -37.463260     153.048

2100.000000      -37.447549     149.760   -17.721875      -5.222    -0.310537     -95.564   -51.719246     -99.544
                -17.721875      -5.222   -37.447549     149.760   -51.719246     -99.544    -0.310537     -95.564
                 -0.310537     -95.564   -51.719246     -99.544   -37.447549     149.760   -17.721875      -5.222
                -51.719246     -99.544    -0.310537     -95.564   -17.721875      -5.222   -37.447549     149.760

2173.333333      -37.463616     146.487   -17.791122      -8.430    -0.316023     -98.868   -51.831052    -104.566
                -17.791122      -8.430   -37.463616     146.487   -51.831052    -104.566    -0.316023     -98.868
                 -0.316023     -98.868   -51.831052    -104.566   -37.463616     146.487   -17.791122      -8.430
                -51.831052    -104.566    -0.316023     -98.868   -17.791122      -8.430   -37.463616     146.487

2246.666667      -37.511672     143.227   -17.889961     -11.632    -0.321004    -102.173   -51.973876    -109.487
                -17.889961     -11.632   -37.511672     143.227   -51.973876    -109.487    -0.321004    -102.173
                 -0.321004    -102.173   -51.973876    -109.487   -37.511672     143.227   -17.889961     -11.632
                -51.973876    -109.487    -0.321004    -102.173   -17.889961     -11.632   -37.511672     143.227

2320.000000      -37.592210     139.980   -18.019070     -14.828    -0.325506    -105.479   -52.147867    -114.291
                -18.019070     -14.828   -37.592210     139.980   -52.147867    -114.291    -0.325506    -105.479
                 -0.325506    -105.479   -52.147867    -114.291   -37.592210     139.980   -18.019070     -14.828
                -52.147867    -114.291    -0.325506    -105.479   -18.019070     -14.828   -37.592210     139.980

2393.333333      -37.706015     136.744   -18.179372     -18.017    -0.329557    -108.787   -52.353203    -118.961
                -18.179372     -18.017   -37.706015     136.744   -52.353203    -118.961    -0.329557    -108.787
                 -0.329557    -108.787   -52.353203    -118.961   -37.706015     136.744   -18.179372     -18.017
                -52.353203    -118.961    -0.329557    -108.787   -18.179372     -18.017   -37.706015     136.744

2466.666667      -37.854187     133.521   -18.372058     -21.197    -0.333194    -112.098   -52.590018    -123.476
                -18.372058     -21.197   -37.854187     133.521   -52.590018    -123.476    -0.333194    -112.098
                 -0.333194    -112.098   -52.590018    -123.476   -37.854187     133.521   -18.372058     -21.197
                -52.590018    -123.476    -0.333194    -112.098   -18.372058     -21.197   -37.854187     133.521

2540.000000      -38.038175     130.310   -18.598624     -24.368    -0.336458    -115.410   -52.858316    -127.811
                -18.598624     -24.368   -38.038175     130.310   -52.858316    -127.811    -0.336458    -115.410
                 -0.336458    -115.410   -52.858316    -127.811   -38.038175     130.310   -18.598624     -24.368
                -52.858316    -127.811    -0.336458    -115.410   -18.598624     -24.368   -38.038175     130.310

2613.333333      -38.259819     127.112   -18.860917     -27.529    -0.339393    -118.725   -53.157830    -131.938
                -18.860917     -27.529   -38.259819     127.112   -53.157830    -131.938    -0.339393    -118.725
                 -0.339393    -118.725   -53.157830    -131.938   -38.259819     127.112   -18.860917     -27.529
                -53.157830    -131.938    -0.339393    -118.725   -18.860917     -27.529   -38.259819     127.112

2686.666667      -38.521418     123.929   -19.161200     -30.676    -0.342048    -122.043   -53.487835    -135.820
                -19.161200     -30.676   -38.521418     123.929   -53.487835    -135.820    -0.342048    -122.043
                 -0.342048    -122.043   -53.487835    -135.820   -38.521418     123.929   -19.161200     -30.676
                -53.487835    -135.820    -0.342048    -122.043   -19.161200     -30.676   -38.521418     123.929

2760.000000      -38.825808     120.764   -19.502230     -33.809    -0.344477    -125.363   -53.846873    -139.418
                -19.502230     -33.809   -38.825808     120.764   -53.846873    -139.418    -0.344477    -125.363
                 -0.344477    -125.363   -53.846873    -139.418   -38.825808     120.764   -19.502230     -33.809
                -53.846873    -139.418    -0.344477    -125.363   -19.502230     -33.809   -38.825808     120.764

2833.333333      -39.176481     117.619   -19.887374     -36.923    -0.346734    -128.687   -54.232368    -142.684
                -19.887374     -36.923   -39.176481     117.619   -54.232368    -142.684    -0.346734    -128.687
                 -0.346734    -128.687   -54.232368    -142.684   -39.176481     117.619   -19.887374     -36.923
                -54.232368    -142.684    -0.346734    -128.687   -19.887374     -36.923   -39.176481     117.619

2906.666667      -39.577736     114.499   -20.320755     -40.014    -0.348877    -132.014   -54.640103    -145.564
                -20.320755     -40.014   -39.577736     114.499   -54.640103    -145.564    -0.348877    -132.014
                 -0.348877    -132.014   -54.640103    -145.564   -39.577736     114.499   -20.320755     -40.014
                -54.640103    -145.564    -0.348877    -132.014   -20.320755     -40.014   -39.577736     114.499

2980.000000      -40.034897     111.412   -20.807457     -43.076    -0.350964    -135.344   -55.063530    -148.000
                -20.807457     -43.076   -40.034897     111.412   -55.063530    -148.000    -0.350964    -135.344
                 -0.350964    -135.344   -55.063530    -148.000   -40.034897     111.412   -20.807457     -43.076
                -55.063530    -148.000    -0.350964    -135.344   -20.807457     -43.076   -40.034897     111.412

3053.333333      -40.554612     108.365   -21.353811     -46.103    -0.353054    -138.677   -55.492941    -149.930
                -21.353811     -46.103   -40.554612     108.365   -55.492941    -149.930    -0.353054    -138.677
                 -0.353054    -138.677   -55.492941    -149.930   -40.554612     108.365   -21.353811     -46.103
                -55.492941    -149.930    -0.353054    -138.677   -21.353811     -46.103   -40.554612     108.365

3126.666667      -41.145281     105.371   -21.967792     -49.084    -0.355206    -142.014   -55.914586    -151.298
                -21.967792     -49.084   -41.145281     105.371   -55.914586    -151.298    -0.355206    -142.014
                 -0.355206    -142.014   -55.914586    -151.298   -41.145281     105.371   -21.967792     -49.084
                -55.914586    -151.298    -0.355206    -142.014   -21.967792     -49.084   -41.145281     105.371

3200.000000      -41.817681     102.448   -22.659611     -52.005    -0.357477    -145.353   -56.310024    -152.063
                -22.659611     -52.005   -41.817681     102.448   -56.310024    -152.063    -0.357477    -145.353
                 -0.357477    -145.353   -56.310024    -152.063   -41.817681     102.448   -22.659611     -52.005
                -56.310024    -152.063    -0.357477    -145.353   -22.659611     -52.005   -41.817681     102.448

3273.333333      -42.585914      99.621   -23.442591     -54.846    -0.359923    -148.696   -56.656198    -152.219
                -23.442591     -54.846   -42.585914      99.621   -56.656198    -152.219    -0.359923    -148.696
                 -0.359923    -148.696   -56.656198    -152.219   -42.585914      99.621   -23.442591     -54.846
                -56.656198    -152.219    -0.359923    -148.696   -23.442591     -54.846   -42.585914      99.621

3346.666667      -43.468868      96.926   -24.334523     -57.578    -0.362598    -152.041   -56.926935    -151.806
                -24.334523     -57.578   -43.468868      96.926   -56.926935    -151.806    -0.362598    -152.041
                 -0.362598    -152.041   -56.926935    -151.806   -43.468868      96.926   -24.334523     -57.578
                -56.926935    -151.806    -0.362598    -152.041   -24.334523     -57.578   -43.468868      96.926

3420.000000      -44.492596      94.421   -25.359861     -60.155    -0.365549    -155.389   -57.096418    -150.936
                -25.359861     -60.155   -44.492596      94.421   -57.096418    -150.936    -0.365549    -155.389
                 -0.365549    -155.389   -57.096418    -150.936   -44.492596      94.421   -25.359861     -60.155
                -57.096418    -150.936    -0.365549    -155.389   -25.359861     -60.155   -44.492596      94.421

3493.333333      -45.694340      92.202   -26.553426     -62.505    -0.368825    -158.740   -57.144345    -149.785
                -26.553426     -62.505   -45.694340      92.202   -57.144345    -149.785    -0.368825    -158.740
                 -0.368825    -158.740   -57.144345    -149.785   -45.694340      92.202   -26.553426     -62.505
                -57.144345    -149.785    -0.368825    -158.740   -26.553426     -62.505   -45.694340      92.202

3566.666667      -47.129748      90.432   -27.967057     -64.501    -0.372464    -162.092   -57.061145    -148.581
                -27.967057     -64.501   -47.129748      90.432   -57.061145    -148.581    -0.372464    -162.092
                 -0.372464    -162.092   -57.061145    -148.581   -47.129748      90.432   -27.967057     -64.501
                -57.061145    -148.581    -0.372464    -162.092   -27.967057     -64.501   -47.129748      90.432

3640.000000      -48.886644      89.429   -29.682409     -65.907    -0.376503    -165.447   -56.850776    -147.561
                -29.682409     -65.907   -48.886644      89.429   -56.850776    -147.561    -0.376503    -165.447
                 -0.376503    -165.447   -56.850776    -147.561   -48.886644      89.429   -29.682409     -65.907
                -56.850776    -147.561    -0.376503    -165.447   -29.682409     -65.907   -48.886644      89.429

3713.333333      -51.112849      89.882   -31.837673     -66.214    -0.380972    -168.802   -56.529534    -146.925
                -31.837673     -66.214   -51.112849      89.882   -56.529534    -146.925    -0.380972    -168.802
                 -0.380972    -168.802   -56.529534    -146.925   -51.112849      89.882   -31.837673     -66.214
                -56.529534    -146.925    -0.380972    -168.802   -31.837673     -66.214   -51.112849      89.882

3786.666667      -54.070900      93.585   -34.687548     -64.139    -0.385894    -172.159   -56.121560    -146.814
                -34.687548     -64.139   -54.070900      93.585   -56.121560    -146.814    -0.385894    -172.159
                 -0.385894    -172.159   -56.121560    -146.814   -54.070900      93.585   -34.687548     -64.139
                -56.121560    -146.814    -0.385894    -172.159   -34.687548     -64.139   -54.070900      93.585

3860.000000      -58.150047     106.496   -38.717291     -55.438    -0.391286    -175.517   -55.653376    -147.297
                -38.717291     -55.438   -58.150047     106.496   -55.653376    -147.297    -0.391286    -175.517
                 -0.391286    -175.517   -55.653376    -147.297   -58.150047     106.496   -38.717291     -55.438
                -55.653376    -147.297    -0.391286    -175.517   -38.717291     -55.438   -58.150047     106.496

3933.333333      -61.955066     147.594   -43.865797     -21.894    -0.397160    -178.875   -55.149589    -148.383
                -43.865797     -21.894   -61.955066     147.594   -55.149589    -148.383    -0.397160    -178.875
                 -0.397160    -178.875   -55.149589    -148.383   -61.955066     147.594   -43.865797     -21.894
