! www.PolarInstruments.com
! File Export V10.11 [9.03]
! For hxji@mail.xidian.edu.cn;QQ=47399897
! File : D:\SJTU\Bachelor\thesis\Coupled_STRP\Code\data\SI\d4line_25_4_mm_201910242117.s4p
! Polar  PCB Transmission Line Field Solver  v11.04.00
# MHz S RI R 50.00
!
! Line Length = 0.025m ( 1.00 inch )
!
!
!	           PORT NUMBERING (Classic style)
!	    PORT#                               PORT#
!	    Z1 = Z2 = 50.00                     Z3 = Z4 = 50.00
!	           --------------------------
!	          |                          |
!	      1 --|                          |-- 3
!	          |                          |
!	      2 --|                          |-- 4
!	          |                          |
!	           --------------------------
!
!
!
! FREQ MHz                S11                       S12                       S13                       S14
!                         S21                       S22                       S23                       S24
!                         S31                       S32                       S33                       S34
!                         S41                       S42                       S43                       S44
!                  REAL         IMAG         REAL         IMAG         REAL         IMAG         REAL         IMAG
1000.000000        0.189217     0.088047     0.041086     0.017818     0.403082    -0.868792    -0.007780     0.006633
                  0.041086     0.017818     0.189217     0.088047    -0.007780     0.006633     0.403082    -0.868792
                  0.403082    -0.868792    -0.007780     0.006633     0.189217     0.088047     0.041086     0.017818
                 -0.007780     0.006633     0.403082    -0.868792     0.041086     0.017818     0.189217     0.088047

1073.333333        0.201707     0.075378     0.043597     0.015076     0.330916    -0.896004    -0.006815     0.008031
                  0.043597     0.015076     0.201707     0.075378    -0.006815     0.008031     0.330916    -0.896004
                  0.330916    -0.896004    -0.006815     0.008031     0.201707     0.075378     0.043597     0.015076
                 -0.006815     0.008031     0.330916    -0.896004     0.043597     0.015076     0.201707     0.075378

1146.666667        0.211965     0.060948     0.045635     0.012015     0.257286    -0.917459    -0.005567     0.009226
                  0.045635     0.012015     0.211965     0.060948    -0.005567     0.009226     0.257286    -0.917459
                  0.257286    -0.917459    -0.005567     0.009226     0.211965     0.060948     0.045635     0.012015
                 -0.005567     0.009226     0.257286    -0.917459     0.045635     0.012015     0.211965     0.060948

1220.000000        0.219765     0.045136     0.047167     0.008711     0.182588    -0.933157    -0.004089     0.010160
                  0.047167     0.008711     0.219765     0.045136    -0.004089     0.010160     0.182588    -0.933157
                  0.182588    -0.933157    -0.004089     0.010160     0.219765     0.045136     0.047167     0.008711
                 -0.004089     0.010160     0.182588    -0.933157     0.047167     0.008711     0.219765     0.045136

1293.333333        0.224940     0.028343     0.048175     0.005240     0.107199    -0.943106    -0.002442     0.010789
                  0.048175     0.005240     0.224940     0.028343    -0.002442     0.010789     0.107199    -0.943106
                  0.107199    -0.943106    -0.002442     0.010789     0.224940     0.028343     0.048175     0.005240
                 -0.002442     0.010789     0.107199    -0.943106     0.048175     0.005240     0.224940     0.028343

1366.666667        0.227385     0.010988     0.048645     0.001677     0.031481    -0.947320    -0.000696     0.011085
                  0.048645     0.001677     0.227385     0.010988    -0.000696     0.011085     0.031481    -0.947320
                  0.031481    -0.947320    -0.000696     0.011085     0.227385     0.010988     0.048645     0.001677
                 -0.000696     0.011085     0.031481    -0.947320     0.048645     0.001677     0.227385     0.010988

1440.000000        0.227056    -0.006503     0.048575    -0.001905    -0.044213    -0.945817     0.001074     0.011034
                  0.048575    -0.001905     0.227056    -0.006503     0.001074     0.011034    -0.044213    -0.945817
                 -0.044213    -0.945817     0.001074     0.011034     0.227056    -0.006503     0.048575    -0.001905
                  0.001074     0.011034    -0.044213    -0.945817     0.048575    -0.001905     0.227056    -0.006503

1513.333333        0.223970    -0.023704     0.047967    -0.005432    -0.119536    -0.938615     0.002794     0.010640
                  0.047967    -0.005432     0.223970    -0.023704     0.002794     0.010640    -0.119536    -0.938615
                 -0.119536    -0.938615     0.002794     0.010640     0.223970    -0.023704     0.047967    -0.005432
                  0.002794     0.010640    -0.119536    -0.938615     0.047967    -0.005432     0.223970    -0.023704

1586.666667        0.218206    -0.040194     0.046834    -0.008831    -0.194134    -0.925734     0.004391     0.009923
                  0.046834    -0.008831     0.218206    -0.040194     0.004391     0.009923    -0.194134    -0.925734
                 -0.194134    -0.925734     0.004391     0.009923     0.218206    -0.040194     0.046834    -0.008831
                  0.004391     0.009923    -0.194134    -0.925734     0.046834    -0.008831     0.218206    -0.040194

1660.000000        0.209902    -0.055569     0.045193    -0.012029    -0.267649    -0.907198     0.005800     0.008917
                  0.045193    -0.012029     0.209902    -0.055569     0.005800     0.008917    -0.267649    -0.907198
                 -0.267649    -0.907198     0.005800     0.008917     0.209902    -0.055569     0.045193    -0.012029
                  0.005800     0.008917    -0.267649    -0.907198     0.045193    -0.012029     0.209902    -0.055569

1733.333333        0.199256    -0.069447     0.043073    -0.014954    -0.339708    -0.883039     0.006964     0.007671
                  0.043073    -0.014954     0.199256    -0.069447     0.006964     0.007671    -0.339708    -0.883039
                 -0.339708    -0.883039     0.006964     0.007671     0.199256    -0.069447     0.043073    -0.014954
                  0.006964     0.007671    -0.339708    -0.883039     0.043073    -0.014954     0.199256    -0.069447

1806.666667        0.186520    -0.081474     0.040510    -0.017536    -0.409921    -0.853300     0.007836     0.006246
                  0.040510    -0.017536     0.186520    -0.081474     0.007836     0.006246    -0.409921    -0.853300
                 -0.409921    -0.853300     0.007836     0.006246     0.186520    -0.081474     0.040510    -0.017536
                  0.007836     0.006246    -0.409921    -0.853300     0.040510    -0.017536     0.186520    -0.081474

1880.000000        0.172001    -0.091335     0.037552    -0.019705    -0.477881    -0.818044     0.008386     0.004710
                  0.037552    -0.019705     0.172001    -0.091335     0.008386     0.004710    -0.477881    -0.818044
                 -0.477881    -0.818044     0.008386     0.004710     0.172001    -0.091335     0.037552    -0.019705
                  0.008386     0.004710    -0.477881    -0.818044     0.037552    -0.019705     0.172001    -0.091335

1953.333333        0.156054    -0.098763     0.034258    -0.021398    -0.543157    -0.777360     0.008601     0.003140
                  0.034258    -0.021398     0.156054    -0.098763     0.008601     0.003140    -0.543157    -0.777360
                 -0.543157    -0.777360     0.008601     0.003140     0.156054    -0.098763     0.034258    -0.021398
                  0.008601     0.003140    -0.543157    -0.777360     0.034258    -0.021398     0.156054    -0.098763

2026.666667        0.139077    -0.103545     0.030701    -0.022557    -0.605299    -0.731369     0.008482     0.001613
                  0.030701    -0.022557     0.139077    -0.103545     0.008482     0.001613    -0.605299    -0.731369
                 -0.605299    -0.731369     0.008482     0.001613     0.139077    -0.103545     0.030701    -0.022557
                  0.008482     0.001613    -0.605299    -0.731369     0.030701    -0.022557     0.139077    -0.103545

2100.000000        0.121502    -0.105528     0.026962    -0.023132    -0.663842    -0.680238     0.008052     0.000204
                  0.026962    -0.023132     0.121502    -0.105528     0.008052     0.000204    -0.663842    -0.680238
                 -0.663842    -0.680238     0.008052     0.000204     0.121502    -0.105528     0.026962    -0.023132
                  0.008052     0.000204    -0.663842    -0.680238     0.026962    -0.023132     0.121502    -0.105528

2173.333333        0.103790    -0.104631     0.023138    -0.023089    -0.718308    -0.624182     0.007350    -0.001019
                  0.023138    -0.023089     0.103790    -0.104631     0.007350    -0.001019    -0.718308    -0.624182
                 -0.718308    -0.624182     0.007350    -0.001019     0.103790    -0.104631     0.023138    -0.023089
                  0.007350    -0.001019    -0.718308    -0.624182     0.023138    -0.023089     0.103790    -0.104631

2246.666667        0.086415    -0.100849     0.019333    -0.022405    -0.768217    -0.563477     0.006431    -0.001997
                  0.019333    -0.022405     0.086415    -0.100849     0.006431    -0.001997    -0.768217    -0.563477
                 -0.768217    -0.563477     0.006431    -0.001997     0.086415    -0.100849     0.019333    -0.022405
                  0.006431    -0.001997    -0.768217    -0.563477     0.019333    -0.022405     0.086415    -0.100849

2320.000000        0.069854    -0.094256     0.015659    -0.021081    -0.813092    -0.498458     0.005364    -0.002688
                  0.015659    -0.021081     0.069854    -0.094256     0.005364    -0.002688    -0.813092    -0.498458
                 -0.813092    -0.498458     0.005364    -0.002688     0.069854    -0.094256     0.015659    -0.021081
                  0.005364    -0.002688    -0.813092    -0.498458     0.015659    -0.021081     0.069854    -0.094256

2393.333333        0.054572    -0.085009     0.012230    -0.019134    -0.852478    -0.429532     0.004226    -0.003068
                  0.012230    -0.019134     0.054572    -0.085009     0.004226    -0.003068    -0.852478    -0.429532
                 -0.852478    -0.429532     0.004226    -0.003068     0.054572    -0.085009     0.012230    -0.019134
                  0.004226    -0.003068    -0.852478    -0.429532     0.012230    -0.019134     0.054572    -0.085009

2466.666667        0.041008    -0.073345     0.009158    -0.016609    -0.885949    -0.357170     0.003100    -0.003131
                  0.009158    -0.016609     0.041008    -0.073345     0.003100    -0.003131    -0.885949    -0.357170
                 -0.885949    -0.357170     0.003100    -0.003131     0.041008    -0.073345     0.009158    -0.016609
                  0.003100    -0.003131    -0.885949    -0.357170     0.009158    -0.016609     0.041008    -0.073345

2540.000000        0.029555    -0.059577     0.006551    -0.013571    -0.913124    -0.281910     0.002066    -0.002897
                  0.006551    -0.013571     0.029555    -0.059577     0.002066    -0.002897    -0.913124    -0.281910
                 -0.913124    -0.281910     0.002066    -0.002897     0.029555    -0.059577     0.006551    -0.013571
                  0.002066    -0.002897    -0.913124    -0.281910     0.006551    -0.013571     0.029555    -0.059577

2613.333333        0.020551    -0.044088     0.004500    -0.010107    -0.933682    -0.204350     0.001199    -0.002403
                  0.004500    -0.010107     0.020551    -0.044088     0.001199    -0.002403    -0.933682    -0.204350
                 -0.933682    -0.204350     0.001199    -0.002403     0.020551    -0.044088     0.004500    -0.010107
                  0.001199    -0.002403    -0.933682    -0.204350     0.004500    -0.010107     0.020551    -0.044088

2686.666667        0.014262    -0.027320     0.003081    -0.006324    -0.947373    -0.125139     0.000561    -0.001705
                  0.003081    -0.006324     0.014262    -0.027320     0.000561    -0.001705    -0.947373    -0.125139
                 -0.947373    -0.125139     0.000561    -0.001705     0.014262    -0.027320     0.003081    -0.006324
                  0.000561    -0.001705    -0.947373    -0.125139     0.003081    -0.006324     0.014262    -0.027320

2760.000000        0.010871    -0.009755     0.002347    -0.002345    -0.954028    -0.044962     0.000194    -0.000875
                  0.002347    -0.002345     0.010871    -0.009755     0.000194    -0.000875    -0.954028    -0.044962
                 -0.954028    -0.044962     0.000194    -0.000875     0.010871    -0.009755     0.002347    -0.002345
                  0.000194    -0.000875    -0.954028    -0.044962     0.002347    -0.002345     0.010871    -0.009755

2833.333333        0.010472     0.008095     0.002323     0.001700    -0.953567     0.035471     0.000124     0.000007
                  0.002323     0.001700     0.010472     0.008095     0.000124     0.000007    -0.953567     0.035471
                 -0.953567     0.035471     0.000124     0.000007     0.010472     0.008095     0.002323     0.001700
                  0.000124     0.000007    -0.953567     0.035471     0.002323     0.001700     0.010472     0.008095

2906.666667        0.013063     0.025710     0.003010     0.005676    -0.946002     0.115443     0.000351     0.000857
                  0.003010     0.005676     0.013063     0.025710     0.000351     0.000857    -0.946002     0.115443
                 -0.946002     0.115443     0.000351     0.000857     0.013063     0.025710     0.003010     0.005676
                  0.000351     0.000857    -0.946002     0.115443     0.003010     0.005676     0.013063     0.025710

2980.000000        0.018551     0.042583     0.004378     0.009453    -0.931440     0.194249     0.000854     0.001595
                  0.004378     0.009453     0.018551     0.042583     0.000854     0.001595    -0.931440     0.194249
                 -0.931440     0.194249     0.000854     0.001595     0.018551     0.042583     0.004378     0.009453
                  0.000854     0.001595    -0.931440     0.194249     0.004378     0.009453     0.018551     0.042583

3053.333333        0.026751     0.058231     0.006373     0.012911    -0.910074     0.271206     0.001592     0.002149
                  0.006373     0.012911     0.026751     0.058231     0.001592     0.002149    -0.910074     0.271206
                 -0.910074     0.271206     0.001592     0.002149     0.026751     0.058231     0.006373     0.012911
                  0.001592     0.002149    -0.910074     0.271206     0.006373     0.012911     0.026751     0.058231

3126.666667        0.037397     0.072219     0.008919     0.015944    -0.882178     0.345675     0.002505     0.002463
                  0.008919     0.015944     0.037397     0.072219     0.002505     0.002463    -0.882178     0.345675
                 -0.882178     0.345675     0.002505     0.002463     0.037397     0.072219     0.008919     0.015944
                  0.002505     0.002463    -0.882178     0.345675     0.008919     0.015944     0.037397     0.072219

3200.000000        0.050154     0.084170     0.011921     0.018466    -0.848098     0.417069     0.003522     0.002497
                  0.011921     0.018466     0.050154     0.084170     0.003522     0.002497    -0.848098     0.417069
                 -0.848098     0.417069     0.003522     0.002497     0.050154     0.084170     0.011921     0.018466
                  0.003522     0.002497    -0.848098     0.417069     0.011921     0.018466     0.050154     0.084170

3273.333333        0.064632     0.093777     0.015272     0.020414    -0.808236     0.484861     0.004566     0.002232
                  0.015272     0.020414     0.064632     0.093777     0.004566     0.002232    -0.808236     0.484861
                 -0.808236     0.484861     0.004566     0.002232     0.064632     0.093777     0.015272     0.020414
                  0.004566     0.002232    -0.808236     0.484861     0.015272     0.020414     0.064632     0.093777

3346.666667        0.080399     0.100807     0.018861     0.021748    -0.763037     0.548595     0.005557     0.001672
                  0.018861     0.021748     0.080399     0.100807     0.005557     0.001672    -0.763037     0.548595
                 -0.763037     0.548595     0.005557     0.001672     0.080399     0.100807     0.018861     0.021748
                  0.005557     0.001672    -0.763037     0.548595     0.018861     0.021748     0.080399     0.100807

3420.000000        0.096996     0.105112     0.022573     0.022450    -0.712977     0.607880     0.006419     0.000837
                  0.022573     0.022450     0.096996     0.105112     0.006419     0.000837    -0.712977     0.607880
                 -0.712977     0.607880     0.006419     0.000837     0.096996     0.105112     0.022573     0.022450
                  0.006419     0.000837    -0.712977     0.607880     0.022573     0.022450     0.096996     0.105112

3493.333333        0.113959     0.106622     0.026298     0.022525    -0.658550     0.662398     0.007088    -0.000233
                  0.026298     0.022525     0.113959     0.106622     0.007088    -0.000233    -0.658550     0.662398
                 -0.658550     0.662398     0.007088    -0.000233     0.113959     0.106622     0.026298     0.022525
                  0.007088    -0.000233    -0.658550     0.662398     0.026298     0.022525     0.113959     0.106622

3566.666667        0.130823     0.105347     0.029931     0.021995    -0.600252     0.711893     0.007510    -0.001482
                  0.029931     0.021995     0.130823     0.105347     0.007510    -0.001482    -0.600252     0.711893
                 -0.600252     0.711893     0.007510    -0.001482     0.130823     0.105347     0.029931     0.021995
                  0.007510    -0.001482    -0.600252     0.711893     0.029931     0.021995     0.130823     0.105347

3640.000000        0.147144     0.101371     0.033382     0.020899    -0.538577     0.756169     0.007647    -0.002847
                  0.033382     0.020899     0.147144     0.101371     0.007647    -0.002847    -0.538577     0.756169
                 -0.538577     0.756169     0.007647    -0.002847     0.147144     0.101371     0.033382     0.020899
                  0.007647    -0.002847    -0.538577     0.756169     0.033382     0.020899     0.147144     0.101371

3713.333333        0.162503     0.094844     0.036568     0.019287    -0.474004     0.795082     0.007479    -0.004258
                  0.036568     0.019287     0.162503     0.094844     0.007479    -0.004258    -0.474004     0.795082
                 -0.474004     0.795082     0.007479    -0.004258     0.162503     0.094844     0.036568     0.019287
                  0.007479    -0.004258    -0.474004     0.795082     0.036568     0.019287     0.162503     0.094844

3786.666667        0.176520     0.085979     0.039420     0.017218    -0.406996     0.828532     0.007003    -0.005641
                  0.039420     0.017218     0.176520     0.085979     0.007003    -0.005641    -0.406996     0.828532
                 -0.406996     0.828532     0.007003    -0.005641     0.176520     0.085979     0.039420     0.017218
                  0.007003    -0.005641    -0.406996     0.828532     0.039420     0.017218     0.176520     0.085979

3860.000000        0.188858     0.075038     0.041883     0.014759    -0.337993     0.856455     0.006232    -0.006927
