! www.PolarInstruments.com
! File Export V10.11 [9.03]
! For hxji@mail.xidian.edu.cn;QQ=47399897
! File : D:\SJTU\Bachelor\thesis\ncmmw2020\Code\data\SI\T_d20200101.s4p
! Polar  PCB Transmission Line Field Solver  v11.04.00
# MHz S RI R 50.00
!
! Line Length = 0.018m ( 0.71 inch )
!
!
!	           PORT NUMBERING (Classic style)
!	    PORT#                               PORT#
!	    Z1 = Z2 = 50.00                     Z3 = Z4 = 50.00
!	           --------------------------
!	          |                          |
!	      1 --|                          |-- 3
!	          |                          |
!	      2 --|                          |-- 4
!	          |                          |
!	           --------------------------
!
!
!
! FREQ MHz                S11                       S12                       S13                       S14
!                         S21                       S22                       S23                       S24
!                         S31                       S32                       S33                       S34
!                         S41                       S42                       S43                       S44
!                  REAL         IMAG         REAL         IMAG         REAL         IMAG         REAL         IMAG
1000.000000        0.001473     0.001775     0.039282     0.047909     0.767524    -0.615964    -0.018496    -0.022339
                  0.039282     0.047909     0.001473     0.001775    -0.018496    -0.022339     0.767524    -0.615964
                  0.767524    -0.615964    -0.018496    -0.022339     0.001473     0.001775     0.039282     0.047909
                 -0.018496    -0.022339     0.767524    -0.615964     0.039282     0.047909     0.001473     0.001775

1073.333333        0.001515     0.001645     0.044032     0.048678     0.735469    -0.652367    -0.020977    -0.022944
                  0.044032     0.048678     0.001515     0.001645    -0.020977    -0.022944     0.735469    -0.652367
                  0.735469    -0.652367    -0.020977    -0.022944     0.001515     0.001645     0.044032     0.048678
                 -0.020977    -0.022944     0.735469    -0.652367     0.044032     0.048678     0.001515     0.001645

1146.666667        0.001543     0.001492     0.048825     0.048975     0.701716    -0.687093    -0.023557    -0.023352
                  0.048825     0.048975     0.001543     0.001492    -0.023557    -0.023352     0.701716    -0.687093
                  0.701716    -0.687093    -0.023557    -0.023352     0.001543     0.001492     0.048825     0.048975
                 -0.023557    -0.023352     0.701716    -0.687093     0.048825     0.048975     0.001543     0.001492

1220.000000        0.001554     0.001315     0.053614     0.048801     0.666353    -0.720064    -0.026220    -0.023557
                  0.053614     0.048801     0.001554     0.001315    -0.026220    -0.023557     0.666353    -0.720064
                  0.666353    -0.720064    -0.026220    -0.023557     0.001554     0.001315     0.053614     0.048801
                 -0.026220    -0.023557     0.666353    -0.720064     0.053614     0.048801     0.001554     0.001315

1293.333333        0.001545     0.001119     0.058353     0.048159     0.629473    -0.751209    -0.028954    -0.023551
                  0.058353     0.048159     0.001545     0.001119    -0.028954    -0.023551     0.629473    -0.751209
                  0.629473    -0.751209    -0.028954    -0.023551     0.001545     0.001119     0.058353     0.048159
                 -0.028954    -0.023551     0.629473    -0.751209     0.058353     0.048159     0.001545     0.001119

1366.666667        0.001511     0.000904     0.062996     0.047057     0.591170    -0.780463    -0.031742    -0.023329
                  0.062996     0.047057     0.001511     0.000904    -0.031742    -0.023329     0.591170    -0.780463
                  0.591170    -0.780463    -0.031742    -0.023329     0.001511     0.000904     0.062996     0.047057
                 -0.031742    -0.023329     0.591170    -0.780463     0.062996     0.047057     0.001511     0.000904

1440.000000        0.001451     0.000674     0.067500     0.045509     0.551542    -0.807762    -0.034571    -0.022885
                  0.067500     0.045509     0.001451     0.000674    -0.034571    -0.022885     0.551542    -0.807762
                  0.551542    -0.807762    -0.034571    -0.022885     0.001451     0.000674     0.067500     0.045509
                 -0.034571    -0.022885     0.551542    -0.807762     0.067500     0.045509     0.001451     0.000674

1513.333333        0.001361     0.000433     0.071822     0.043530     0.510687    -0.833053    -0.037425    -0.022217
                  0.071822     0.043530     0.001361     0.000433    -0.037425    -0.022217     0.510687    -0.833053
                  0.510687    -0.833053    -0.037425    -0.022217     0.001361     0.000433     0.071822     0.043530
                 -0.037425    -0.022217     0.510687    -0.833053     0.071822     0.043530     0.001361     0.000433

1586.666667        0.001239     0.000184     0.075921     0.041142     0.468707    -0.856282    -0.040289    -0.021321
                  0.075921     0.041142     0.001239     0.000184    -0.040289    -0.021321     0.468707    -0.856282
                  0.468707    -0.856282    -0.040289    -0.021321     0.001239     0.000184     0.075921     0.041142
                 -0.040289    -0.021321     0.468707    -0.856282     0.075921     0.041142     0.001239     0.000184

1660.000000        0.001083    -0.000069     0.079758     0.038370     0.425705    -0.877403    -0.043148    -0.020195
                  0.079758     0.038370     0.001083    -0.000069    -0.043148    -0.020195     0.425705    -0.877403
                  0.425705    -0.877403    -0.043148    -0.020195     0.001083    -0.000069     0.079758     0.038370
                 -0.043148    -0.020195     0.425705    -0.877403     0.079758     0.038370     0.001083    -0.000069

1733.333333        0.000892    -0.000321     0.083299     0.035241     0.381785    -0.896377    -0.045986    -0.018837
                  0.083299     0.035241     0.000892    -0.000321    -0.045986    -0.018837     0.381785    -0.896377
                  0.381785    -0.896377    -0.045986    -0.018837     0.000892    -0.000321     0.083299     0.035241
                 -0.045986    -0.018837     0.381785    -0.896377     0.083299     0.035241     0.000892    -0.000321

1806.666667        0.000665    -0.000567     0.086510     0.031787     0.337054    -0.913166    -0.048788    -0.017249
                  0.086510     0.031787     0.000665    -0.000567    -0.048788    -0.017249     0.337054    -0.913166
                  0.337054    -0.913166    -0.048788    -0.017249     0.000665    -0.000567     0.086510     0.031787
                 -0.048788    -0.017249     0.337054    -0.913166     0.086510     0.031787     0.000665    -0.000567

1880.000000        0.000401    -0.000804     0.089362     0.028043     0.291616    -0.927739    -0.051537    -0.015431
                  0.089362     0.028043     0.000401    -0.000804    -0.051537    -0.015431     0.291616    -0.927739
                  0.291616    -0.927739    -0.051537    -0.015431     0.000401    -0.000804     0.089362     0.028043
                 -0.051537    -0.015431     0.291616    -0.927739     0.089362     0.028043     0.000401    -0.000804

1953.333333        0.000102    -0.001025     0.091830     0.024045     0.245581    -0.940071    -0.054219    -0.013384
                  0.091830     0.024045     0.000102    -0.001025    -0.054219    -0.013384     0.245581    -0.940071
                  0.245581    -0.940071    -0.054219    -0.013384     0.000102    -0.001025     0.091830     0.024045
                 -0.054219    -0.013384     0.245581    -0.940071     0.091830     0.024045     0.000102    -0.001025

2026.666667       -0.000234    -0.001226     0.093891     0.019832     0.199054    -0.950138    -0.056817    -0.011111
                  0.093891     0.019832    -0.000234    -0.001226    -0.056817    -0.011111     0.199054    -0.950138
                  0.199054    -0.950138    -0.056817    -0.011111    -0.000234    -0.001226     0.093891     0.019832
                 -0.056817    -0.011111     0.199054    -0.950138     0.093891     0.019832    -0.000234    -0.001226

2100.000000       -0.000603    -0.001402     0.095527     0.015446     0.152145    -0.957926    -0.059317    -0.008615
                  0.095527     0.015446    -0.000603    -0.001402    -0.059317    -0.008615     0.152145    -0.957926
                  0.152145    -0.957926    -0.059317    -0.008615    -0.000603    -0.001402     0.095527     0.015446
                 -0.059317    -0.008615     0.152145    -0.957926     0.095527     0.015446    -0.000603    -0.001402

2173.333333       -0.001004    -0.001549     0.096725     0.010929     0.104962    -0.963422    -0.061703    -0.005901
                  0.096725     0.010929    -0.001004    -0.001549    -0.061703    -0.005901     0.104962    -0.963422
                  0.104962    -0.963422    -0.061703    -0.005901    -0.001004    -0.001549     0.096725     0.010929
                 -0.061703    -0.005901     0.104962    -0.963422     0.096725     0.010929    -0.001004    -0.001549

2246.666667       -0.001434    -0.001661     0.097473     0.006324     0.057614    -0.966618    -0.063960    -0.002975
                  0.097473     0.006324    -0.001434    -0.001661    -0.063960    -0.002975     0.057614    -0.966618
                  0.057614    -0.966618    -0.063960    -0.002975    -0.001434    -0.001661     0.097473     0.006324
                 -0.063960    -0.002975     0.057614    -0.966618     0.097473     0.006324    -0.001434    -0.001661

2320.000000       -0.001890    -0.001734     0.097767     0.001676     0.010209    -0.967512    -0.066073     0.000158
                  0.097767     0.001676    -0.001890    -0.001734    -0.066073     0.000158     0.010209    -0.967512
                  0.010209    -0.967512    -0.066073     0.000158    -0.001890    -0.001734     0.097767     0.001676
                 -0.066073     0.000158     0.010209    -0.967512     0.097767     0.001676    -0.001890    -0.001734

2393.333333       -0.002367    -0.001765     0.097606    -0.002970    -0.037145    -0.966105    -0.068028     0.003490
                  0.097606    -0.002970    -0.002367    -0.001765    -0.068028     0.003490    -0.037145    -0.966105
                 -0.037145    -0.966105    -0.068028     0.003490    -0.002367    -0.001765     0.097606    -0.002970
                 -0.068028     0.003490    -0.037145    -0.966105     0.097606    -0.002970    -0.002367    -0.001765

2466.666667       -0.002863    -0.001749     0.096992    -0.007572    -0.084339    -0.962406    -0.069810     0.007014
                  0.096992    -0.007572    -0.002863    -0.001749    -0.069810     0.007014    -0.084339    -0.962406
                 -0.084339    -0.962406    -0.069810     0.007014    -0.002863    -0.001749     0.096992    -0.007572
                 -0.069810     0.007014    -0.084339    -0.962406     0.096992    -0.007572    -0.002863    -0.001749

2540.000000       -0.003371    -0.001683     0.095933    -0.012084    -0.131265    -0.956424    -0.071406     0.010721
                  0.095933    -0.012084    -0.003371    -0.001683    -0.071406     0.010721    -0.131265    -0.956424
                 -0.131265    -0.956424    -0.071406     0.010721    -0.003371    -0.001683     0.095933    -0.012084
                 -0.071406     0.010721    -0.131265    -0.956424     0.095933    -0.012084    -0.003371    -0.001683

2613.333333       -0.003886    -0.001565     0.094440    -0.016464    -0.177816    -0.948176    -0.072803     0.014600
                  0.094440    -0.016464    -0.003886    -0.001565    -0.072803     0.014600    -0.177816    -0.948176
                 -0.177816    -0.948176    -0.072803     0.014600    -0.003886    -0.001565     0.094440    -0.016464
                 -0.072803     0.014600    -0.177816    -0.948176     0.094440    -0.016464    -0.003886    -0.001565

2686.666667       -0.004403    -0.001392     0.092528    -0.020671    -0.223887    -0.937682    -0.073986     0.018643
                  0.092528    -0.020671    -0.004403    -0.001392    -0.073986     0.018643    -0.223887    -0.937682
                 -0.223887    -0.937682    -0.073986     0.018643    -0.004403    -0.001392     0.092528    -0.020671
                 -0.073986     0.018643    -0.223887    -0.937682     0.092528    -0.020671    -0.004403    -0.001392

2760.000000       -0.004915    -0.001164     0.090217    -0.024665    -0.269370    -0.924968    -0.074943     0.022836
                  0.090217    -0.024665    -0.004915    -0.001164    -0.074943     0.022836    -0.269370    -0.924968
                 -0.269370    -0.924968    -0.074943     0.022836    -0.004915    -0.001164     0.090217    -0.024665
                 -0.074943     0.022836    -0.269370    -0.924968     0.090217    -0.024665    -0.004915    -0.001164

2833.333333       -0.005416    -0.000879     0.087531    -0.028408    -0.314161    -0.910062    -0.075663     0.027168
                  0.087531    -0.028408    -0.005416    -0.000879    -0.075663     0.027168    -0.314161    -0.910062
                 -0.314161    -0.910062    -0.075663     0.027168    -0.005416    -0.000879     0.087531    -0.028408
                 -0.075663     0.027168    -0.314161    -0.910062     0.087531    -0.028408    -0.005416    -0.000879

2906.666667       -0.005900    -0.000537     0.084495    -0.031866    -0.358157    -0.893000    -0.076134     0.031627
                  0.084495    -0.031866    -0.005900    -0.000537    -0.076134     0.031627    -0.358157    -0.893000
                 -0.358157    -0.893000    -0.076134     0.031627    -0.005900    -0.000537     0.084495    -0.031866
                 -0.076134     0.031627    -0.358157    -0.893000     0.084495    -0.031866    -0.005900    -0.000537

2980.000000       -0.006360    -0.000139     0.081140    -0.035005    -0.401254    -0.873821    -0.076345     0.036197
                  0.081140    -0.035005    -0.006360    -0.000139    -0.076345     0.036197    -0.401254    -0.873821
                 -0.401254    -0.873821    -0.076345     0.036197    -0.006360    -0.000139     0.081140    -0.035005
                 -0.076345     0.036197    -0.401254    -0.873821     0.081140    -0.035005    -0.006360    -0.000139

3053.333333       -0.006789     0.000313     0.077499    -0.037797    -0.443352    -0.852569    -0.076285     0.040864
                  0.077499    -0.037797    -0.006789     0.000313    -0.076285     0.040864    -0.443352    -0.852569
                 -0.443352    -0.852569    -0.076285     0.040864    -0.006789     0.000313     0.077499    -0.037797
                 -0.076285     0.040864    -0.443352    -0.852569     0.077499    -0.037797    -0.006789     0.000313

3126.666667       -0.007180     0.000817     0.073607    -0.040215    -0.484352    -0.829291    -0.075946     0.045614
                  0.073607    -0.040215    -0.007180     0.000817    -0.075946     0.045614    -0.484352    -0.829291
                 -0.484352    -0.829291    -0.075946     0.045614    -0.007180     0.000817     0.073607    -0.040215
                 -0.075946     0.045614    -0.484352    -0.829291     0.073607    -0.040215    -0.007180     0.000817

3200.000000       -0.007528     0.001371     0.069502    -0.042237    -0.524155    -0.804042    -0.075319     0.050429
                  0.069502    -0.042237    -0.007528     0.001371    -0.075319     0.050429    -0.524155    -0.804042
                 -0.524155    -0.804042    -0.075319     0.050429    -0.007528     0.001371     0.069502    -0.042237
                 -0.075319     0.050429    -0.524155    -0.804042     0.069502    -0.042237    -0.007528     0.001371

3273.333333       -0.007826     0.001971     0.065224    -0.043845    -0.562668    -0.776880    -0.074397     0.055292
                  0.065224    -0.043845    -0.007826     0.001971    -0.074397     0.055292    -0.562668    -0.776880
                 -0.562668    -0.776880    -0.074397     0.055292    -0.007826     0.001971     0.065224    -0.043845
                 -0.074397     0.055292    -0.562668    -0.776880     0.065224    -0.043845    -0.007826     0.001971

3346.666667       -0.008068     0.002611     0.060815    -0.045024    -0.599796    -0.747867    -0.073171     0.060186
                  0.060815    -0.045024    -0.008068     0.002611    -0.073171     0.060186    -0.599796    -0.747867
                 -0.599796    -0.747867    -0.073171     0.060186    -0.008068     0.002611     0.060815    -0.045024
                 -0.073171     0.060186    -0.599796    -0.747867     0.060815    -0.045024    -0.008068     0.002611

3420.000000       -0.008249     0.003287     0.056317    -0.045763    -0.635450    -0.717072    -0.071638     0.065094
                  0.056317    -0.045763    -0.008249     0.003287    -0.071638     0.065094    -0.635450    -0.717072
                 -0.635450    -0.717072    -0.071638     0.065094    -0.008249     0.003287     0.056317    -0.045763
                 -0.071638     0.065094    -0.635450    -0.717072     0.056317    -0.045763    -0.008249     0.003287

3493.333333       -0.008363     0.003992     0.051775    -0.046058    -0.669541    -0.684566    -0.069791     0.069994
                  0.051775    -0.046058    -0.008363     0.003992    -0.069791     0.069994    -0.669541    -0.684566
                 -0.669541    -0.684566    -0.069791     0.069994    -0.008363     0.003992     0.051775    -0.046058
                 -0.069791     0.069994    -0.669541    -0.684566     0.051775    -0.046058    -0.008363     0.003992

3566.666667       -0.008407     0.004720     0.047232    -0.045904    -0.701987    -0.650426    -0.067628     0.074870
                  0.047232    -0.045904    -0.008407     0.004720    -0.067628     0.074870    -0.701987    -0.650426
                 -0.701987    -0.650426    -0.067628     0.074870    -0.008407     0.004720     0.047232    -0.045904
                 -0.067628     0.074870    -0.701987    -0.650426     0.047232    -0.045904    -0.008407     0.004720

3640.000000       -0.008376     0.005464     0.042732    -0.045306    -0.732705    -0.614735    -0.065146     0.079699
                  0.042732    -0.045306    -0.008376     0.005464    -0.065146     0.079699    -0.732705    -0.614735
                 -0.732705    -0.614735    -0.065146     0.079699    -0.008376     0.005464     0.042732    -0.045306
                 -0.065146     0.079699    -0.732705    -0.614735     0.042732    -0.045306    -0.008376     0.005464

3713.333333       -0.008269     0.006216     0.038318    -0.044270    -0.761620    -0.577576    -0.062345     0.084463
                  0.038318    -0.044270    -0.008269     0.006216    -0.062345     0.084463    -0.761620    -0.577576
                 -0.761620    -0.577576    -0.062345     0.084463    -0.008269     0.006216     0.038318    -0.044270
                 -0.062345     0.084463    -0.761620    -0.577576     0.038318    -0.044270    -0.008269     0.006216

3786.666667       -0.008082     0.006968     0.034034    -0.042806    -0.788658    -0.539041    -0.059224     0.089141
                  0.034034    -0.042806    -0.008082     0.006968    -0.059224     0.089141    -0.788658    -0.539041
                 -0.788658    -0.539041    -0.059224     0.089141    -0.008082     0.006968     0.034034    -0.042806
                 -0.059224     0.089141    -0.788658    -0.539041     0.034034    -0.042806    -0.008082     0.006968

3860.000000       -0.007814     0.007712     0.029921    -0.040931    -0.813750    -0.499224    -0.055784     0.093711
